! Hittite Microwave Corporation								
! 20 Alpha Road								
! Chelmsford, MA 01824
! http://www.hittite.com								
! Tel: 978-250-3343								
! Fax: 978-250-3373							
! Device: HMC452QS16G, .4-2.2 GHz, InGaP HBT 1 Watt Power Amplifier							
! Misc: Vdd=+5V,  Room
!       Deemebedded small signal s-parameters to the package pins.
! 
# MHZ S MA R 50

350 0.777895 172.267582 6.088636 88.43059 0.018409 35.98059 0.788285 -172.434132
359.330144 0.778946 171.972759 5.928716 87.776577 0.018507 36.321793 0.784916 -172.8468
368.660287 0.779162 171.590985 5.773079 87.296266 0.018743 36.288371 0.783208 -173.205189
377.990431 0.779357 171.257819 5.632709 86.841376 0.018913 36.637691 0.782403 -173.570723
387.320574 0.779551 170.945747 5.496952 86.419063 0.019114 36.941599 0.780921 -173.913003
396.650718 0.779754 170.604363 5.359628 86.009047 0.019252 37.192636 0.780043 -174.187104
405.980861 0.780662 170.278258 5.224441 85.71952 0.019376 37.642821 0.780015 -174.350172
415.311005 0.781146 169.920383 5.096469 85.639484 0.019562 38.216565 0.782106 -174.372386
424.641148 0.780806 169.524824 4.995972 85.709979 0.019821 39.043711 0.787958 -174.681063
433.971292 0.780135 169.148359 4.932853 85.54776 0.020207 39.453358 0.792374 -175.353525
443.301435 0.779425 168.831362 4.865666 84.979676 0.020564 39.583504 0.7915 -176.088033
452.631579 0.779193 168.538804 4.780574 84.326777 0.02085 39.521513 0.787619 -176.638482
461.961722 0.779383 168.236912 4.686733 83.804096 0.021092 39.589694 0.784695 -176.982056
471.291866 0.779593 167.943394 4.5895 83.377551 0.021269 39.83645 0.7827 -177.243288
480.62201 0.779807 167.636099 4.496375 82.991386 0.021459 40.027319 0.780229 -177.478308
489.952153 0.780032 167.30505 4.406121 82.637203 0.021684 40.284237 0.778083 -177.603367
499.282297 0.780266 166.992204 4.314348 82.386645 0.021826 40.537028 0.777067 -177.591198
508.61244 0.780528 166.631447 4.228277 82.270602 0.02196 40.962612 0.778476 -177.52913
517.942584 0.7808 166.230911 4.160423 82.314077 0.022225 41.506517 0.784111 -177.578846
527.272727 0.780702 165.86682 4.11779 82.323203 0.022601 41.992293 0.79253 -178.059927
536.602871 0.779369 165.489101 4.085678 81.915715 0.02309 42.077294 0.796688 -178.936222
545.933014 0.779539 165.190802 4.040257 81.239243 0.023448 42.028573 0.792218 -179.754862
555.263158 0.779681 164.881855 3.97451 80.573535 0.023706 41.940903 0.78629 179.767424
564.593301 0.779015 164.525569 3.901263 80.064018 0.023841 41.748803 0.7829 179.534392
573.923445 0.779245 164.206775 3.829243 79.723529 0.024081 41.886783 0.778643 179.38581
583.253589 0.780341 163.87799 3.762354 79.425566 0.024348 42.002648 0.776943 179.352239
592.583732 0.780677 163.538286 3.692905 79.216053 0.024468 42.292655 0.776171 179.404999
601.913876 0.780955 163.167621 3.634792 79.158538 0.024695 42.842797 0.777007 179.532049
611.244019 0.781226 162.766921 3.582491 79.138745 0.024964 43.182908 0.782492 179.605827
620.574163 0.780771 162.356447 3.550565 79.056699 0.025377 43.609905 0.790359 179.354561
629.904306 0.780736 162.027615 3.527662 78.798185 0.02584 43.746032 0.796709 178.658347
639.23445 0.780286 161.713956 3.500895 78.270066 0.026252 43.6393 0.797341 177.832482
648.564593 0.780155 161.40216 3.46176 77.667377 0.026566 43.427521 0.793383 177.209664
657.894737 0.780342 161.12484 3.412899 77.155501 0.026839 43.148133 0.78816 176.732583
667.22488 0.780566 160.804199 3.36142 76.694929 0.027046 43.081819 0.78295 176.489576
676.555024 0.780811 160.458607 3.308675 76.28555 0.027262 43.246315 0.779139 176.376549
685.885167 0.781056 160.121873 3.256561 75.955106 0.02748 43.381517 0.776217 176.318595
695.215311 0.781308 159.776137 3.208413 75.721922 0.027686 43.506468 0.773947 176.407734
704.545455 0.781561 159.431641 3.165527 75.605791 0.027951 43.7467 0.774224 176.56384
713.875598 0.781818 159.076167 3.128809 75.559777 0.028211 43.990686 0.777672 176.680463
723.205742 0.781796 158.719056 3.099096 75.518226 0.028535 44.205881 0.784406 176.620903
732.535885 0.781327 158.349528 3.079926 75.341469 0.028974 44.42946 0.791643 176.258752
741.866029 0.781512 157.996671 3.061523 74.955663 0.029455 44.324994 0.796999 175.560797
751.196172 0.78169 157.649292 3.041848 74.37661 0.029857 44.060389 0.796539 174.733358
760.526316 0.781878 157.327464 3.012226 73.798713 0.030188 43.886607 0.792074 174.127251
769.856459 0.782035 157.006636 2.973614 73.318906 0.030404 43.752542 0.786857 173.778912
779.186603 0.781343 156.700053 2.935211 72.929722 0.030712 43.724698 0.782525 173.555198
788.516746 0.781583 156.333948 2.897232 72.593141 0.030922 43.636921 0.779978 173.500895
797.84689 0.781822 155.974725 2.862586 72.340527 0.031198 43.754402 0.777413 173.57256
807.177033 0.782072 155.613856 2.828459 72.164621 0.031445 43.9962 0.776541 173.656989
816.507177 0.782307 155.26013 2.800251 72.059184 0.031755 44.150906 0.778188 173.752196
825.837321 0.78176 154.86176 2.77594 71.915145 0.03211 44.221987 0.782462 173.714027
835.167464 0.781773 154.494876 2.759912 71.710777 0.032536 44.281399 0.787941 173.504677
844.497608 0.781943 154.160703 2.748594 71.394645 0.033043 44.293018 0.792984 173.00554
853.827751 0.78145 153.834694 2.731829 70.932133 0.033473 44.053569 0.794581 172.341759
863.157895 0.781315 153.488939 2.708411 70.380068 0.033813 43.831647 0.79298 171.728679
872.488038 0.781507 153.138087 2.682794 69.872976 0.034126 43.653646 0.788702 171.269285
881.818182 0.781712 152.772121 2.655611 69.442155 0.034419 43.46761 0.784409 170.902331
891.148325 0.781933 152.391315 2.627227 69.102594 0.034654 43.318 0.780432 170.680698
900.478469 0.782161 152.023143 2.598867 68.843309 0.034889 43.317855 0.776889 170.623502
909.808612 0.782385 151.655692 2.570784 68.597172 0.035164 43.381239 0.775488 170.642483
919.138756 0.782608 151.260688 2.545248 68.35716 0.035473 43.428978 0.775987 170.69519
928.4689 0.782496 150.860771 2.525492 68.172206 0.03585 43.498714 0.778637 170.676461
937.799043 0.782022 150.479378 2.511532 67.996952 0.036274 43.463172 0.784056 170.492633
947.129187 0.782195 150.097492 2.500999 67.711011 0.036724 43.499576 0.788634 170.206407
956.45933 0.782357 149.720398 2.488719 67.327355 0.037161 43.325489 0.791985 169.718402
965.789474 0.782501 149.355053 2.475175 66.80754 0.037616 42.987014 0.792822 169.113001
975.119617 0.782684 148.966096 2.454749 66.268872 0.037959 42.841838 0.791883 168.549336
984.449761 0.782864 148.602657 2.43377 65.813773 0.038229 42.578845 0.789135 168.083464
993.779904 0.783059 148.2172 2.407661 65.392365 0.038528 42.365284 0.784625 167.846534
1003.110048 0.783281 147.798808 2.384306 64.970022 0.038705 42.373563 0.780134 167.667964
1012.440191 0.783471 147.399387 2.36367 64.695588 0.039008 42.19042 0.777454 167.592542
1021.770335 0.78364 147.037043 2.345689 64.483041 0.039438 42.126964 0.776532 167.557171
1031.100478 0.783828 146.628554 2.32827 64.234494 0.039807 42.142867 0.778238 167.487949
1040.430622 0.78401 146.212362 2.313136 64.004994 0.040207 42.215281 0.780234 167.430991
1049.760766 0.784179 145.79535 2.300817 63.717731 0.040623 42.218832 0.783765 167.243813
1059.090909 0.78432 145.402985 2.291177 63.329476 0.041048 41.994021 0.786981 166.873909
1068.421053 0.784452 145.010561 2.280453 62.882038 0.041477 41.65046 0.78932 166.403031
1077.751196 0.784587 144.627888 2.26735 62.403653 0.041911 41.402409 0.790135 165.858865
1087.08134 0.784739 144.237898 2.251735 61.907775 0.042287 41.209163 0.789137 165.359355
1096.411483 0.784892 143.851689 2.23366 61.449652 0.042626 40.929605 0.786868 164.91323
1105.741627 0.785047 143.47344 2.215809 61.07049 0.042914 40.58025 0.784191 164.558798
1115.07177 0.785682 143.077941 2.199114 60.7147 0.043204 40.331925 0.781498 164.317011
1124.401914 0.78595 142.677198 2.182365 60.397499 0.043542 40.241183 0.779209 164.191589
1133.732057 0.785534 142.265863 2.166532 60.124053 0.04382 40.20123 0.777439 164.150663
1143.062201 0.785703 141.834644 2.152397 59.818493 0.044086 40.16701 0.776678 164.100989
1152.392344 0.785841 141.42652 2.139259 59.520428 0.044498 40.096026 0.778026 164.0196
1161.722488 0.785962 141.001181 2.128671 59.190032 0.044993 39.91343 0.780537 163.831763
1171.052632 0.786062 140.597212 2.119991 58.835578 0.04555 39.772946 0.784039 163.574908
1180.382775 0.786003 140.214514 2.110464 58.477239 0.045943 39.540684 0.786096 163.229718
1189.712919 0.78526 139.811182 2.097541 58.046881 0.046447 39.262958 0.787926 162.720715
1199.043062 0.785377 139.397859 2.086325 57.565029 0.046813 39.04235 0.787998 162.286877
1208.373206 0.785501 138.974494 2.073024 57.087015 0.047134 38.655819 0.787086 161.796929
1217.703349 0.785633 138.538308 2.059417 56.63123 0.047448 38.420129 0.783379 161.384501
1227.033493 0.785765 138.144069 2.043554 56.259314 0.047709 38.154051 0.780634 161.098712
1236.363636 0.785897 137.697269 2.030024 55.885684 0.048024 37.867502 0.778798 160.792836
1245.69378 0.785125 137.273385 2.016523 55.560129 0.048387 37.723334 0.777857 160.581075
1255.023923 0.7851 136.85314 2.003222 55.234297 0.048762 37.506594 0.77783 160.407383
1264.354067 0.786013 136.414622 1.991883 54.914744 0.049141 37.376323 0.777928 160.245567
1273.684211 0.785586 135.960571 1.980984 54.567533 0.049565 37.27648 0.779504 160.077323
1283.014354 0.78541 135.512612 1.971774 54.186492 0.049966 37.021994 0.780838 159.829001
1292.344498 0.785494 135.067077 1.963307 53.788463 0.050396 36.765592 0.782567 159.513767
1301.674641 0.785574 134.634633 1.953539 53.34599 0.050848 36.525751 0.784006 159.104689
1311.004785 0.785655 134.203945 1.942939 52.861 0.051268 36.181814 0.784529 158.657758
1320.334928 0.785753 133.755798 1.931154 52.377708 0.051604 35.86809 0.784662 158.224934
1329.665072 0.786341 133.318944 1.919472 51.916877 0.051946 35.574724 0.784299 157.816322
1338.995215 0.78697 132.878434 1.908752 51.468472 0.052291 35.235075 0.782994 157.442376
1348.325359 0.787073 132.419106 1.89704 51.044145 0.052569 34.978308 0.781156 157.120833
1357.655502 0.787171 131.969461 1.884882 50.65012 0.052869 34.786005 0.779665 156.838565
1366.985646 0.787259 131.505231 1.873475 50.253086 0.053228 34.557393 0.778782 156.566569
1376.315789 0.78734 131.04585 1.861226 49.874746 0.053643 34.345799 0.777889 156.339521
1385.645933 0.787408 130.603814 1.850982 49.548866 0.054048 34.109679 0.777212 156.122814
1394.976077 0.787485 130.165665 1.842456 49.179792 0.05432 33.881658 0.777479 155.85937
1404.30622 0.78768 129.709251 1.834052 48.778093 0.054775 33.640151 0.778525 155.578386
1413.636364 0.788645 129.25454 1.825748 48.322908 0.055137 33.281089 0.779589 155.283932
1422.966507 0.7887 128.798678 1.817336 47.83609 0.055555 32.984703 0.780656 154.858946
1432.296651 0.788756 128.362834 1.807034 47.376287 0.055975 32.696622 0.781731 154.421885
1441.626794 0.78881 127.948474 1.796738 46.955788 0.056334 32.343109 0.782811 154.005394
1450.956938 0.788857 127.501594 1.788126 46.503332 0.056748 32.031132 0.781979 153.60855
1460.287081 0.788932 127.042226 1.777799 46.030782 0.056993 31.780925 0.781086 153.210331
1469.617225 0.789002 126.581786 1.767184 45.590773 0.057272 31.437376 0.779328 152.868737
1478.947368 0.789061 126.12008 1.755156 45.18915 0.05767 31.128097 0.779057 152.534781
1488.277512 0.78912 125.665611 1.744247 44.818824 0.057988 30.875857 0.778355 152.259116
1497.607656 0.789176 125.20537 1.735245 44.412879 0.058281 30.601347 0.77816 151.992191
1506.937799 0.78922 124.756244 1.726707 44.031497 0.058617 30.380349 0.777532 151.736276
1516.267943 0.789262 124.292993 1.718221 43.628203 0.058975 30.069064 0.777236 151.444612
1525.598086 0.789295 123.844281 1.709852 43.222602 0.059377 29.734276 0.777882 151.142328
1534.92823 0.789333 123.412846 1.701488 42.79568 0.059697 29.404101 0.778385 150.817017
1544.258373 0.788862 122.95245 1.693087 42.338785 0.060029 29.06711 0.778954 150.438135
1553.588517 0.78836 122.484888 1.683825 41.884577 0.060429 28.746873 0.77954 150.041345
1562.91866 0.788825 122.032253 1.673636 41.439104 0.060767 28.427334 0.779602 149.654815
1572.248804 0.789499 121.574863 1.664131 41.009285 0.061066 28.094405 0.779291 149.279667
1581.578947 0.789536 121.119257 1.655111 40.581415 0.061385 27.761941 0.779005 148.895223
1590.909091 0.789575 120.640975 1.645487 40.129731 0.061753 27.46064 0.779484 148.478853
1600.239234 0.789615 120.164742 1.636555 39.707816 0.062082 27.16619 0.778533 148.132692
1609.569378 0.789664 119.698757 1.626614 39.288397 0.062319 26.845717 0.77759 147.791719
1618.899522 0.789693 119.240894 1.618139 38.878108 0.062623 26.598108 0.776776 147.47019
1628.229665 0.789722 118.780649 1.60959 38.466265 0.062982 26.203347 0.776816 147.117179
1637.559809 0.789767 118.289736 1.599653 38.053986 0.063283 25.946857 0.776854 146.810347
1646.889952 0.789789 117.811158 1.592989 37.622293 0.063648 25.566169 0.776884 146.483653
1656.220096 0.789823 117.363672 1.582896 37.144282 0.063945 25.346531 0.77692 146.143234
1665.550239 0.790811 116.907214 1.576401 36.719124 0.06432 25.031229 0.77791 145.781853
1674.880383 0.790926 116.449667 1.566615 36.286722 0.064623 24.633277 0.77803 145.408112
1684.210526 0.790953 116.000944 1.55808 35.822485 0.06492 24.357748 0.77806 145.071785
1693.54067 0.790985 115.535302 1.549664 35.38096 0.065213 24.022873 0.777254 144.674838
1702.870813 0.791796 115.075891 1.541494 34.967991 0.06563 23.65823 0.777854 144.282656
1712.200957 0.792084 114.633817 1.533162 34.556512 0.065854 23.334933 0.777391 143.909687
1721.5311 0.792125 114.174203 1.523652 34.108044 0.066105 22.998427 0.777123 143.526193
1730.861244 0.792826 113.684465 1.514827 33.637004 0.066402 22.623415 0.777155 143.158113
1740.191388 0.793249 113.223229 1.506508 33.188211 0.066696 22.25491 0.776566 142.794038
1749.521531 0.793281 112.761459 1.498181 32.760638 0.066946 21.974178 0.776146 142.430308
1758.851675 0.793307 112.303643 1.489911 32.327846 0.067243 21.702535 0.776157 142.071085
1768.181818 0.793802 111.873198 1.482487 31.908132 0.067543 21.389041 0.776166 141.695636
1777.511962 0.794397 111.429937 1.475223 31.508384 0.067829 21.034269 0.776175 141.316436
1786.842105 0.794419 110.982989 1.467596 31.086505 0.068168 20.639663 0.776187 140.94783
1796.172249 0.794444 110.558585 1.460437 30.641701 0.068436 20.27773 0.776202 140.556773
1805.502392 0.794484 110.105365 1.451729 30.203996 0.068652 19.947632 0.776218 140.189081
1814.832536 0.794526 109.644943 1.442335 29.762588 0.068888 19.637804 0.776483 139.870849
1824.162679 0.794561 109.203687 1.434212 29.326266 0.069167 19.235309 0.777298 139.422723
1833.492823 0.794601 108.73886 1.425745 28.858419 0.069392 18.986792 0.777303 138.990828
1842.822967 0.794757 108.290722 1.416351 28.425706 0.069672 18.66451 0.777195 138.576814
1852.15311 0.795729 107.825607 1.409618 28.009418 0.069888 18.315399 0.776263 138.292102
1861.483254 0.79577 107.370287 1.401449 27.622792 0.070173 17.877337 0.776272 137.871871
1870.813397 0.795809 106.913669 1.393294 27.210379 0.070383 17.646742 0.776264 137.482708
1880.143541 0.795833 106.501701 1.386699 26.782978 0.07067 17.326136 0.776259 137.116783
1889.473684 0.795883 106.059571 1.378693 26.346937 0.070811 17.004305 0.776265 136.781095
1898.803828 0.795926 105.655115 1.369296 25.929005 0.071081 16.624556 0.776272 136.437757
1908.133971 0.795975 105.190358 1.362244 25.495046 0.071233 16.389113 0.776263 136.101725
1917.464115 0.79602 104.741219 1.354467 25.064481 0.071485 16.081036 0.776256 135.722757
1926.794258 0.796064 104.282729 1.346398 24.656844 0.071827 15.776317 0.776245 135.332556
1936.124402 0.79612 103.811498 1.339383 24.236642 0.072018 15.468173 0.776237 134.957472
1945.454545 0.796844 103.36718 1.330923 23.806838 0.072196 15.146838 0.776237 134.56559
1954.784689 0.797291 102.94435 1.32239 23.400424 0.0723 14.756692 0.776245 134.12684
1964.114833 0.797347 102.526348 1.315245 23.00007 0.072478 14.351075 0.776246 133.699875
1973.444976 0.797932 102.092335 1.308012 22.583667 0.072718 13.994385 0.776242 133.344582
1982.77512 0.798986 101.649007 1.30083 22.175639 0.07292 13.677409 0.776231 132.992715
1992.105263 0.79961 101.22075 1.293106 21.782005 0.073083 13.327794 0.776229 132.574923
2001.435407 0.799674 100.800072 1.284373 21.393197 0.073296 12.978556 0.776621 132.16541
2010.76555 0.799729 100.377209 1.276588 21.017789 0.073574 12.704584 0.777255 131.845129
2020.095694 0.799802 99.955227 1.268775 20.615469 0.073714 12.39633 0.777245 131.544154
2029.425837 0.800141 99.514581 1.261295 20.160957 0.073886 12.050909 0.777245 131.146993
2038.755981 0.801006 99.066539 1.254568 19.721842 0.074032 11.685047 0.777248 130.708828
2048.086124 0.801074 98.651936 1.246828 19.302566 0.074281 11.414671 0.777403 130.38832
2057.416268 0.801149 98.279791 1.239212 18.954062 0.074419 10.999182 0.778281 130.043571
2066.746411 0.801288 97.888458 1.231524 18.551784 0.074681 10.781018 0.778174 129.720383
2076.076555 0.802332 97.488758 1.223784 18.169394 0.074792 10.391404 0.777208 129.304505
2085.406699 0.802413 97.068103 1.216089 17.790598 0.075062 10.070024 0.777195 128.922228
2094.736842 0.802509 96.657492 1.209831 17.372469 0.07501 9.813522 0.778182 128.527415
2104.066986 0.803526 96.249689 1.202389 16.978063 0.07519 9.545623 0.778217 128.260463
2113.397129 0.803715 95.880023 1.194763 16.595437 0.0753 9.201275 0.777311 127.899419
2122.727273 0.804658 95.454132 1.188382 16.15614 0.075549 8.847959 0.778024 127.519652
2132.057416 0.804934 95.050895 1.182137 15.774643 0.07575 8.554404 0.778203 127.119522
2141.38756 0.805042 94.631874 1.175939 15.357255 0.075872 8.237781 0.778968 126.740712
2150.717703 0.805147 94.243259 1.167843 14.991068 0.075969 7.956188 0.778518 126.36838
2160.047847 0.805898 93.879183 1.160922 14.615193 0.076188 7.695623 0.778854 126.020376
2169.37799 0.806361 93.512663 1.154825 14.224185 0.076353 7.360213 0.779224 125.648325
2178.708134 0.806473 93.129729 1.147941 13.836107 0.076499 7.05448 0.779221 125.281263
2188.038278 0.807116 92.745098 1.140628 13.45114 0.076639 6.77248 0.779757 124.926845
2197.368421 0.807248 92.365656 1.133369 13.049516 0.076783 6.456884 0.780759 124.584382
2206.698565 0.807272 91.996202 1.126648 12.675651 0.076889 6.135651 0.780857 124.25852
2216.028708 0.80758 91.630866 1.119612 12.343272 0.077002 5.799396 0.780665 123.905475
2225.358852 0.807091 91.245233 1.112014 11.981757 0.077174 5.483432 0.781308 123.53353
2234.688995 0.80754 90.841839 1.106003 11.6046 0.077208 5.219671 0.781306 123.189914
2244.019139 0.808393 90.446089 1.0997 11.240632 0.077323 4.893216 0.78131 122.840759
2253.349282 0.808515 90.100441 1.092852 10.934383 0.077502 4.615914 0.781301 122.508694
2262.679426 0.808817 89.738742 1.086938 10.596602 0.077664 4.382439 0.781295 122.159391
2272.009569 0.809685 89.337907 1.080876 10.188529 0.077743 4.117907 0.781301 121.840339
2281.339713 0.809061 88.942783 1.073854 9.792648 0.077758 3.856093 0.7814 121.485366
2290.669856 0.810156 88.545862 1.068012 9.375582 0.077934 3.48118 0.782374 121.162144
2300 0.810306 88.185788 1.061008 9.04829 0.078022 3.27829 0.782371 120.81624
